
**** 02/04/01 04:36:41 ********* PSpice 9.1 (Mar 1999) ******** ID# 0 ********

 ** circuit file for profile: dricer 


 ****     CIRCUIT DESCRIPTION


******************************************************************************




** WARNING: THIS AUTOMATICALLY GENERATED FILE MAY BE OVERWRITTEN BY SUBSEQUENT PROFILES

*Libraries: 
* Local Libraries :
* From [PSPICE NETLIST] section of pspice91.ini file:
.lib "D:\my_lib\orcad.lib" 
.lib "nom.lib" 

*Analysis directives: 
.TRAN  0 50us 0 
.OPTIONS ABSTOL= 100.0p
.OPTIONS VNTOL= 10.0u
.PROBE 
.INC "3525-SCHEMATIC1.net" 


**** INCLUDING 3525-SCHEMATIC1.net ****
* source 3525
C_C5         0 N02296  3n  
X_U1         N00086 N00132 N00144 N00107 N00089 N00041 0 N00179 N00055 N00179
+  N00129 SG1525A/25C 
+ PARAMS: PERIOD=5us DEADTIME=0.5us
R_R5         N00041 N00044  10  
R_R6         N00089 N00086  1k  
R_R4         0 N00104  1k  
R_R7         N00107 N00083  1k  
R_R2         N00132 N00129  1k  
R_R1         0 N00144  1k  
R_R3         N00207 N00210  22  
Kn_K1         L_L1 L_L2 
+ L_L3    0.99 
R_R8         N00219 N00222  22  
L_L2         N00044 N00055  200uH  
V_V1         N00179 0 15Vdc
L_L1         0 N00207  200uH  
L_L3         N00219 0  200uH  
D_D1         N00044 N00179 D1N4148 
D_D3         0 N00044 D1N4148 
D_D4         0 N00055 D1N4148 
D_D2         N00055 N00179 D1N4148 
C_C2         0 N00210  3n  
C_C3         0 N00222  3n  
C_C1         N00107 0  1n  
R_R11         N02893 N00207  100  
R_R12         N02899 N00219  100  
R_R9         N00207 N02210  22  
C_C6         0 N02893  10n  
R_R10         N00219 N02296  22  
C_C7         0 N02899  10n  
C_C4         0 N02210  3n  
** Floating/unmodeled pin fixups **
R__UC0001   N00104  0   {1/GMIN}
R__UC0002   N00083  0   {1/GMIN}

**** RESUMING 3525-schematic1-dricer.sim.cir ****
.INC "3525-SCHEMATIC1.als"



**** INCLUDING 3525-SCHEMATIC1.als ****
.ALIASES
C_C5            C5(1=0 2=N02296 )
X_U1            U1(ERR-=N00086 ERR+=N00132 OSC=N00144 CT=N00107 COMP=N00089
+  OUTA=N00041 GND=0 C=N00179 OUTB=N00055 VIN=N00179 VREF=N00129 )
R_R5            R5(1=N00041 2=N00044 )
R_R6            R6(1=N00089 2=N00086 )
R_R4            R4(1=0 2=N00104 )
R_R7            R7(1=N00107 2=N00083 )
R_R2            R2(1=N00132 2=N00129 )
R_R1            R1(1=0 2=N00144 )
R_R3            R3(1=N00207 2=N00210 )
Kn_K1            K1()
R_R8            R8(1=N00219 2=N00222 )
L_L2            L2(1=N00044 2=N00055 )
V_V1            V1(+=N00179 -=0 )
L_L1            L1(1=0 2=N00207 )
L_L3            L3(1=N00219 2=0 )
D_D1            D1(1=N00044 2=N00179 )
D_D3            D3(1=0 2=N00044 )
D_D4            D4(1=0 2=N00055 )
D_D2            D2(1=N00055 2=N00179 )
C_C2            C2(1=0 2=N00210 )
C_C3            C3(1=0 2=N00222 )
C_C1            C1(1=N00107 2=0 )
R_R11           R11(1=N02893 2=N00207 )
R_R12           R12(1=N02899 2=N00219 )
R_R9            R9(1=N00207 2=N02210 )
C_C6            C6(1=0 2=N02893 )
R_R10           R10(1=N00219 2=N02296 )
C_C7            C7(1=0 2=N02899 )
C_C4            C4(1=0 2=N02210 )
.ENDALIASES

**** RESUMING 3525-schematic1-dricer.sim.cir ****
.END

**** 02/04/01 04:36:41 ********* PSpice 9.1 (Mar 1999) ******** ID# 0 ********

 ** circuit file for profile: dricer 


 ****     Diode MODEL PARAMETERS


******************************************************************************




               D1N4148         D1              
          IS    2.682000E-09   10.000000E-15 
           N    1.836                        
         ISR    1.565000E-09                 
         IKF     .04417                      
          BV  100              99.999000E+12 
         IBV  100.000000E-06    1.000000E-03 
          RS     .5664         40            
          TT   11.540000E-09  100.000000E-12 
         CJO    4.000000E-12  900.000000E-15 
          VJ     .5                          
           M     .3333                       


**** 02/04/01 04:36:41 ********* PSpice 9.1 (Mar 1999) ******** ID# 0 ********

 ** circuit file for profile: dricer 


 ****     BJT MODEL PARAMETERS


******************************************************************************




               Q222200         NP              
               NPN             NPN             
          IS   39.758900E-15  100.000000E-18 
          BF  195.3412         50            
          NF    1.004008        1            
         VAF   53.081          50            
         IKF     .976          99.999000E+12 
         ISE   16.024100E-15                 
          NE    1.479193                     
          BR    1.110794        1            
          NR     .992826        1            
         VAR   11.35717        99.999000E+12 
         IKR    2.499395       99.999000E+12 
         ISC    1.885050E-12                 
          NC    1.183828                     
          RB   56.58265        70            
         RBM    5.259228                     
         IRB  150.459000E-06   99.999000E+12 
          RE     .040297                     
          RC     .4208         40            
         CJE   25.600000E-12  900.000000E-15 
         VJE     .682256                     
         MJE     .335886                     
         CJC   14.062500E-12    1.500000E-12 
         VJC     .541739         .85         
         MJC     .454789                     
         CJS                    2.000000E-12 
          FC     .83                         
          TF  330.000000E-12  100.000000E-12 
         XTF    6                            
         VTF     .574          99.999000E+12 
         ITF     .32                         
         PTF   25.832                        
          TR  320.000000E-09   10.000000E-09 
         XTB    1.6486                       
         XTI    5.8315                       
          CN    2.42            2.42         
           D     .87             .87         


**** 02/04/01 04:36:41 ********* PSpice 9.1 (Mar 1999) ******** ID# 0 ********

 ** circuit file for profile: dricer 


 ****     INITIAL TRANSIENT SOLUTION       TEMPERATURE =   27.000 DEG C


******************************************************************************



 NODE   VOLTAGE     NODE   VOLTAGE     NODE   VOLTAGE     NODE   VOLTAGE


(N00041)     .0351 (N00044)     .0351 (N00055)     .0351 (N00083)    1.0000     

(N00086)    0.0000 (N00089)    0.0000 (N00104)    0.0000 (N00107)    1.0000     

(N00129)    5.1000 (N00132)    5.1000 (N00144)    0.0000 (N00179)   15.0000     

(N00207)    0.0000 (N00210)    0.0000 (N00219)    0.0000 (N00222)    0.0000     

(N02210)    0.0000 (N02296)    0.0000 (N02893)    0.0000 (N02899)    0.0000     

(X_U1.3) 51.00E+03 (X_U1.4)    5.0000 (X_U1.5)-51.00E+03 (X_U1.10)     .5000    

(X_U1.11)    4.9998                   (X_U1.12)     .2668                       

(X_U1.13)     .2668                   (X_U1.20)   -6.3000                       

(X_U1.25)    8.7000                   (X_U1.X4.2)    4.9928                     

(X_U1.X4.3)     .5002                 (X_U1.X5.2)     .8883                     

(X_U1.X5.3)     .8883                 (X_U1.X5.5)     .6612                     

(X_U1.X5.6)     .6612                 (X_U1.X5.7)     .8883                     

(X_U1.X5.8)     .8883                 (X_U1.X8.3)     .7943                     

(X_U1.X8.4)     .2584                 (X_U1.X8.6)    1.4605                     

(X_U1.X8.7)     .7440                 (X_U1.X8.8)     .0536                     

(X_U1.X8.9)     .6367                 (X_U1.X9.3)     .7943                     

(X_U1.X9.4)     .2584                 (X_U1.X9.6)    1.4605                     

(X_U1.X9.7)     .7440                 (X_U1.X9.8)     .0536                     

(X_U1.X9.9)     .6367                 (X_U1.X8.10) 16.38E-09                    

(X_U1.X8.11)     .2667                (X_U1.X9.10) 16.38E-09                    

(X_U1.X9.11)     .2667                (X_U1.X4.X1.6)-51.00E+03                  

(X_U1.X4.X1.7)    4.9928              (X_U1.X4.X1.8)-49.04E+03                  

(X_U1.X4.X1.9)    5.0000              (X_U1.X4.X2.6)     .5002                  

(X_U1.X4.X2.7)    0.0000              (X_U1.X4.X2.8)     .8576                  

(X_U1.X4.X2.9)    4.9932              (X_U1.X4.X3.6)     .5002                  

(X_U1.X4.X3.7)     .5000              (X_U1.X4.X3.8)    1.2466                  

(X_U1.X4.X3.9)     .3323              (X_U1.X4.X4.6)    4.9998                  

(X_U1.X4.X4.7)    4.9928              (X_U1.X4.X4.8)    5.0000                  

(X_U1.X4.X4.9)     .2264              (X_U1.X5.X1.6)     .8883                  

(X_U1.X5.X1.7)     .8883              (X_U1.X5.X1.8)    1.6244                  

(X_U1.X5.X1.9)     .2668              (X_U1.X5.X2.6)     .8883                  

(X_U1.X5.X2.7)     .8883              (X_U1.X5.X2.8)    1.6244                  

(X_U1.X5.X2.9)     .2668              (X_U1.X4.X1.10)-36.78E+03                 

(X_U1.X4.X1.11)-36.78E+03             (X_U1.X4.X1.12)    5.0000                 

(X_U1.X4.X1.20)    5.0000             (X_U1.X4.X1.30)    5.0000                 

(X_U1.X4.X2.10)     .6432             (X_U1.X4.X2.11)     .6430                 

(X_U1.X4.X2.12)    4.9932             (X_U1.X4.X2.20)    4.9932                 

(X_U1.X4.X2.30)    4.9932             (X_U1.X4.X3.10)     .9349                 

(X_U1.X4.X3.11)     .8225             (X_U1.X4.X3.12)     .3323                 

(X_U1.X4.X3.20)     .3323             (X_U1.X4.X3.30)     .3323                 

(X_U1.X4.X4.10)    3.7500             (X_U1.X4.X4.11)    1.0244                 

(X_U1.X4.X4.12)     .2264             (X_U1.X4.X4.20)     .2264                 

(X_U1.X4.X4.30)     .2264             (X_U1.X5.X1.10)    1.2183                 

(X_U1.X5.X1.11)     .8438             (X_U1.X5.X1.12)     .2668                 

(X_U1.X5.X1.20)     .2668             (X_U1.X5.X1.30)     .2668                 

(X_U1.X5.X2.10)    1.2183             (X_U1.X5.X2.11)     .8438                 

(X_U1.X5.X2.12)     .2668             (X_U1.X5.X2.20)     .2668                 

(X_U1.X5.X2.30)     .2668             




    VOLTAGE SOURCE CURRENTS
    NAME         CURRENT

    V_V1        -1.209E-02
    X_U1.VIN25  -8.700E-06
    X_U1.VFIVE  -4.908E+01
    X_U1.VREF   -1.001E-03
    X_U1.X1.VOSC   3.275E-12
    X_U1.X1.VCAP  -1.000E-06

    TOTAL POWER DISSIPATION   2.46E+02  WATTS



          JOB CONCLUDED

          TOTAL JOB TIME          163.54
